
T1AF0 000:380 SEGGER J-Link V5.10p Log File (0002ms, 0324ms total)
T1AF0 000:380 DLL Compiled: Feb 26 2016 19:04:06 (0002ms, 0324ms total)
T1AF0 000:380 Logging started @ 2016-05-12 12:18 (0002ms, 0324ms total)
T1AF0 000:382 JLINK_SetWarnOutHandler(...) (0000ms, 0324ms total)
T1AF0 000:382 JLINK_OpenEx(...)
Firmware: J-Link OB-STM32F103 V1 compiled Feb  5 2014 13:48:52
Hardware: V1.00
S/N: 660006158  returns O.K. (0284ms, 0608ms total)
T1AF0 000:666 JLINK_SetErrorOutHandler(...) (0000ms, 0608ms total)
T1AF0 000:666 JLINK_ExecCommand("ProjectFile = "C:\SRC\Application Notes\AN1201 - SPI examples\mcu\project\SPI_AN_va108xx\JLinkSettings.ini"", ...)Device "CORTEX-M0" selected.  returns 0x00 (0003ms, 0611ms total)
T1AF0 000:669 JLINK_ExecCommand("Device = VA108xx", ...)Device "CORTEX-M0" selected.  returns 0x00 (0001ms, 0612ms total)
T1AF0 000:670 JLINK_ExecCommand("DisableConnectionTimeout", ...)  returns 0x01 (0000ms, 0612ms total)
T1AF0 000:670 JLINK_GetHardwareVersion()  returns 0x2710 (0000ms, 0612ms total)
T1AF0 000:670 JLINK_GetDLLVersion()  returns 51016 (0000ms, 0612ms total)
T1AF0 000:670 JLINK_GetFirmwareString(...) (0000ms, 0612ms total)
T1AF0 000:671 JLINK_GetDLLVersion()  returns 51016 (0000ms, 0612ms total)
T1AF0 000:671 JLINK_GetCompileDateTime() (0000ms, 0612ms total)
T1AF0 000:672 JLINK_GetFirmwareString(...) (0000ms, 0612ms total)
T1AF0 000:673 JLINK_GetHardwareVersion()  returns 0x2710 (0000ms, 0612ms total)
T1AF0 000:676 JLINK_TIF_Select(JLINKARM_TIF_JTAG)  returns 0x00 (0005ms, 0617ms total)
T1AF0 000:681 JLINK_SetSpeed(5000) (0001ms, 0618ms total)
T1AF0 000:682 JLINK_GetIdData(...) >0x2F8 JTAG>TotalIRLen = 9, IRPrint = 0x0021 >0x30 JTAG> >0x210 JTAG> >0x70 JTAG> >0x50 JTAG> >0x40 JTAG> >0x50 JTAG> >0x80 JTAG> >0x40 JTAG> >0x30 JTAG> >0x40 JTAG> >0x40 JTAG> >0x30 JTAG> >0x40 JTAG> >0x50 JTAG>Found Cortex-M0 r0p0, Little endian. -- CPU_ReadMem(4 bytes @ 0xE000EDF0) -- CPU_WriteMem(4 bytes @ 0xE000EDF0) -- CPU_ReadMem(4 bytes @ 0xE0002000)FPUnit: 4 code (BP) slots and 0 literal slots -- CPU_ReadMem(4 bytes @ 0xE000EDFC)
 -- CPU_WriteMem(4 bytes @ 0xE000EDFC) -- CPU_ReadMem(4 bytes @ 0xE0001000) -- CPU_WriteMem(4 bytes @ 0xE0001000)CoreSight components:ROMTbl 0 @ E00FF000 -- CPU_ReadMem(16 bytes @ 0xE00FF000) -- CPU_ReadMem(16 bytes @ 0xE000EFF0) -- CPU_ReadMem(16 bytes @ 0xE000EFE0)ROMTbl 0 [0]: FFF0F000, CID: B105E00D, PID: 000BB008 SCS -- CPU_ReadMem(16 bytes @ 0xE0001FF0) -- CPU_ReadMem(16 bytes @ 0xE0001FE0)ROMTbl 0 [1]: FFF02000, CID: B105E00D, PID: 000BB00A DWT -- CPU_ReadMem(16 bytes @ 0xE0002FF0)
 -- CPU_ReadMem(16 bytes @ 0xE0002FE0)ROMTbl 0 [2]: FFF03000, CID: B105E00D, PID: 000BB00B FPB ScanLen=9 NumDevices=2 aId[0]=0x0BA01477 aIrRead[0]=0 aScanLen[0]=0 aScanRead[0]=0 (0044ms, 0662ms total)
T1AF0 000:726 JLINK_JTAG_GetDeviceID(DeviceIndex = 0)  returns 0x40037E3 (0000ms, 0662ms total)
T1AF0 000:726 JLINK_JTAG_GetDeviceInfo(DeviceIndex = 0)  returns 0x01 (0000ms, 0662ms total)
T1AF0 000:726 JLINK_JTAG_GetDeviceID(DeviceIndex = 1)  returns 0xBA01477 (0000ms, 0662ms total)
T1AF0 000:726 JLINK_JTAG_GetDeviceInfo(DeviceIndex = 1)  returns 0x00 (0000ms, 0662ms total)
T1AF0 000:726 JLINK_GetDLLVersion()  returns 51016 (0000ms, 0662ms total)
T1AF0 000:726 JLINK_CORE_GetFound()  returns 0x60000FF (0000ms, 0662ms total)
T1AF0 000:726 JLINK_GetDebugInfo(0x100) -- Value=0xE00FF003  returns 0x00 (0001ms, 0663ms total)
T1AF0 000:727 JLINK_ReadMem (0xE00FF000, 0x0020 Bytes, ...) -- CPU is running -- CPU_ReadMem(32 bytes @ 0xE00FF000) - Data: 03 F0 F0 FF 03 20 F0 FF 03 30 F0 FF 00 00 00 00 ...  returns 0x00 (0001ms, 0664ms total)
T1AF0 000:728 JLINK_ReadMem (0xE000EFF0, 0x0010 Bytes, ...) -- CPU is running -- CPU_ReadMem(16 bytes @ 0xE000EFF0) - Data: 0D 00 00 00 E0 00 00 00 05 00 00 00 B1 00 00 00  returns 0x00 (0001ms, 0665ms total)
T1AF0 000:729 JLINK_ReadMem (0xE000EFD0, 0x0020 Bytes, ...) -- CPU is running -- CPU_ReadMem(32 bytes @ 0xE000EFD0) - Data: 04 00 00 00 00 00 00 00 00 00 00 00 00 00 00 00 ...  returns 0x00 (0002ms, 0667ms total)
T1AF0 000:731 JLINK_ReadMem (0xE0001FF0, 0x0010 Bytes, ...) -- CPU is running -- CPU_ReadMem(16 bytes @ 0xE0001FF0) - Data: 0D 00 00 00 E0 00 00 00 05 00 00 00 B1 00 00 00  returns 0x00 (0001ms, 0668ms total)
T1AF0 000:732 JLINK_ReadMem (0xE0001FD0, 0x0020 Bytes, ...) -- CPU is running -- CPU_ReadMem(32 bytes @ 0xE0001FD0) - Data: 04 00 00 00 00 00 00 00 00 00 00 00 00 00 00 00 ...  returns 0x00 (0002ms, 0670ms total)
T1AF0 000:734 JLINK_ReadMem (0xE0002FF0, 0x0010 Bytes, ...) -- CPU is running -- CPU_ReadMem(16 bytes @ 0xE0002FF0) - Data: 0D 00 00 00 E0 00 00 00 05 00 00 00 B1 00 00 00  returns 0x00 (0001ms, 0671ms total)
T1AF0 000:735 JLINK_ReadMem (0xE0002FD0, 0x0020 Bytes, ...) -- CPU is running -- CPU_ReadMem(32 bytes @ 0xE0002FD0) - Data: 04 00 00 00 00 00 00 00 00 00 00 00 00 00 00 00 ...  returns 0x00 (0002ms, 0673ms total)
T1AF0 000:737 JLINK_ReadMemU32(0xE000ED00, 0x0001 Items, ...) -- CPU is running -- CPU_ReadMem(4 bytes @ 0xE000ED00) - Data: 00 C2 0C 41  returns 0x01 (0001ms, 0674ms total)
T1AF0 000:738 JLINK_SetResetType(JLINKARM_RESET_TYPE_NORMAL)  returns JLINKARM_RESET_TYPE_NORMAL (0000ms, 0674ms total)
T1AF0 000:738 JLINK_Reset() -- CPU is running -- CPU_WriteMem(4 bytes @ 0xE000EDF0) -- CPU is running -- CPU_WriteMem(4 bytes @ 0xE000EDFC) -- CPU is running -- CPU_WriteMem(4 bytes @ 0xE000ED0C) -- CPU is running -- CPU_ReadMem(4 bytes @ 0xE000EDF0) -- CPU is running -- CPU_ReadMem(4 bytes @ 0xE000EDF0) -- CPU is running -- CPU_WriteMem(4 bytes @ 0xE000EDF0) -- CPU is running -- CPU_WriteMem(4 bytes @ 0xE000EDFC) -- CPU is running -- CPU_ReadMem(4 bytes @ 0xE000EDF0) >0x80 JTAG> >0x40 JTAG> >0x30 JTAG>
 >0x40 JTAG> >0x50 JTAG> >0x40 JTAG> -- CPU_WriteMem(4 bytes @ 0xE000EDFC) -- CPU_WriteMem(4 bytes @ 0xE0001028) -- CPU_WriteMem(4 bytes @ 0xE0001038) -- CPU_WriteMem(4 bytes @ 0xE0001048) -- CPU_WriteMem(4 bytes @ 0xE0001058) -- CPU_WriteMem(4 bytes @ 0xE0002000) -- CPU_ReadMem(4 bytes @ 0xE000EDFC) -- CPU_ReadMem(4 bytes @ 0xE0001000) -- CPU_WriteMem(4 bytes @ 0xE0001000) (0041ms, 0715ms total)
T1AF0 000:779 JLINK_ReadReg(R15 (PC))  returns 0x000000E0 (0000ms, 0715ms total)
T1AF0 000:779 JLINK_ReadReg(XPSR)  returns 0xC1000000 (0000ms, 0715ms total)
T1AF0 000:780 JLINK_Halt()  returns 0x00 (0000ms, 0716ms total)
T1AF0 000:780 JLINK_IsHalted()  returns TRUE (0000ms, 0716ms total)
T1AF0 000:780 JLINK_ReadMemU32(0xE000EDF0, 0x0001 Items, ...) -- CPU_ReadMem(4 bytes @ 0xE000EDF0) - Data: 03 00 03 00  returns 0x01 (0000ms, 0716ms total)
T1AF0 000:780 JLINK_WriteU32(0xE000EDF0, 0xA05F0003) -- CPU_WriteMem(4 bytes @ 0xE000EDF0)  returns 0x00 (0001ms, 0717ms total)
T1AF0 000:781 JLINK_WriteU32(0xE000EDFC, 0x01000000) -- CPU_WriteMem(4 bytes @ 0xE000EDFC)  returns 0x00 (0001ms, 0718ms total)
T1AF0 000:783 JLINK_GetHWStatus(...)  returns 0x00 (0000ms, 0718ms total)
T1AF0 000:784 JLINK_GetNumBPUnits(Type = 0xFFFFFF00)  returns 0x04 (0000ms, 0718ms total)
T1AF0 000:784 JLINK_GetNumBPUnits(Type = 0xF0)  returns 0x2000 (0000ms, 0718ms total)
T1AF0 000:784 JLINK_GetNumWPUnits()  returns 0x02 (0000ms, 0718ms total)
T1AF0 000:784 JLINK_GetSpeed()  returns 0xFA0 (0000ms, 0718ms total)
T1AF0 000:784 JLINK_ReadMemU32(0xE000E004, 0x0001 Items, ...) -- CPU_ReadMem(4 bytes @ 0xE000E004) - Data: 00 00 00 00  returns 0x01 (0002ms, 0720ms total)
T1AF0 000:786 JLINK_ReadReg(R15 (PC))  returns 0x000000E0 (0000ms, 0720ms total)
T1AF0 000:786 JLINK_ReadReg(XPSR)  returns 0xC1000000 (0000ms, 0720ms total)
T1AF0 000:817 JLINK_WriteMem(0x00000000, 0x0400 Bytes, ...) - Data: 00 17 00 10 E1 00 00 00 E9 00 00 00 D5 00 00 00 ... -- CPU_WriteMem(1024 bytes @ 0x00000000)  returns 0x400 (0012ms, 0732ms total)
T1AF0 000:829 JLINK_WriteMem(0x00000400, 0x0400 Bytes, ...) - Data: 43 78 2A 5D 11 A1 00 20 00 F0 30 FA 02 98 41 21 ... -- CPU_WriteMem(1024 bytes @ 0x00000400)  returns 0x400 (0011ms, 0743ms total)
T1AF0 000:840 JLINK_WriteMem(0x00000800, 0x0400 Bytes, ...) - Data: 13 49 14 46 45 18 E8 6A 18 35 00 28 04 D0 01 28 ... -- CPU_WriteMem(1024 bytes @ 0x00000800)  returns 0x400 (0011ms, 0754ms total)
T1AF0 000:851 JLINK_WriteMem(0x00000C00, 0x0400 Bytes, ...) - Data: 00 29 02 D0 01 29 07 D0 21 E0 09 20 10 62 00 21 ... -- CPU_WriteMem(1024 bytes @ 0x00000C00)  returns 0x400 (0012ms, 0766ms total)
T1AF0 000:864 JLINK_WriteMem(0x00001000, 0x0400 Bytes, ...) - Data: D2 07 05 D0 0A 20 C0 43 70 47 04 20 C0 43 70 47 ... -- CPU_WriteMem(1024 bytes @ 0x00001000)  returns 0x400 (0011ms, 0777ms total)
T1AF0 000:875 JLINK_WriteMem(0x00001400, 0x0400 Bytes, ...) - Data: E6 65 66 65 25 65 61 68 01 20 48 61 61 68 04 48 ... -- CPU_WriteMem(1024 bytes @ 0x00001400)  returns 0x400 (0011ms, 0788ms total)
T1AF0 000:886 JLINK_WriteMem(0x00001800, 0x0400 Bytes, ...) - Data: 01 21 20 69 C9 03 88 43 49 00 08 43 20 61 22 46 ... -- CPU_WriteMem(1024 bytes @ 0x00001800)  returns 0x400 (0012ms, 0800ms total)
T1AF0 000:898 JLINK_WriteMem(0x00001C00, 0x0400 Bytes, ...) - Data: 10 B5 02 48 00 F0 D1 F8 10 BD 00 00 54 04 00 10 ... -- CPU_WriteMem(1024 bytes @ 0x00001C00)  returns 0x400 (0011ms, 0811ms total)
T1AF0 000:910 JLINK_WriteMem(0x00002000, 0x0400 Bytes, ...) - Data: 49 07 12 D5 80 68 69 46 08 80 20 6D C3 19 40 1C ... -- CPU_WriteMem(1024 bytes @ 0x00002000)  returns 0x400 (0011ms, 0822ms total)
T1AF0 000:921 JLINK_WriteMem(0x00002400, 0x0400 Bytes, ...) - Data: 01 20 08 70 00 21 02 20 FE F7 9A FB 10 BD 00 00 ... -- CPU_WriteMem(1024 bytes @ 0x00002400)  returns 0x400 (0011ms, 0833ms total)
T1AF0 000:932 JLINK_WriteMem(0x00002800, 0x0400 Bytes, ...) - Data: A0 69 FD F7 A9 FF 02 20 00 90 80 23 57 4A 58 A1 ... -- CPU_WriteMem(1024 bytes @ 0x00002800)  returns 0x400 (0012ms, 0845ms total)
T1AF0 000:944 JLINK_WriteMem(0x00002C00, 0x01C0 Bytes, ...) - Data: 6E 74 20 66 6F 72 20 52 45 41 44 20 63 6F 6D 6D ... -- CPU_WriteMem(448 bytes @ 0x00002C00)  returns 0x1C0 (0005ms, 0850ms total)
T1AF0 001:002 JLINK_SetResetType(JLINKARM_RESET_TYPE_NORMAL)  returns JLINKARM_RESET_TYPE_NORMAL (0000ms, 0850ms total)
T1AF0 001:002 JLINK_Reset() -- CPU_ReadMem(4 bytes @ 0x00002C00) -- CPU_WriteMem(4 bytes @ 0x00002C00) -- CPU_WriteMem(4 bytes @ 0xE000EDF0) -- CPU_WriteMem(4 bytes @ 0xE000EDFC) -- CPU_WriteMem(4 bytes @ 0xE000ED0C) -- CPU_ReadMem(4 bytes @ 0xE000EDF0) -- CPU_ReadMem(4 bytes @ 0xE000EDF0) -- CPU_WriteMem(4 bytes @ 0xE000EDF0) -- CPU_WriteMem(4 bytes @ 0xE000EDFC) -- CPU is running -- CPU_ReadMem(4 bytes @ 0xE000EDF0) >0x80 JTAG> >0x40 JTAG> >0x30 JTAG> >0x40 JTAG> >0x50 JTAG> >0x40 JTAG>
 -- CPU_WriteMem(4 bytes @ 0xE000EDFC) -- CPU_WriteMem(4 bytes @ 0xE0001028) -- CPU_WriteMem(4 bytes @ 0xE0001038) -- CPU_WriteMem(4 bytes @ 0xE0001048) -- CPU_WriteMem(4 bytes @ 0xE0001058) -- CPU_WriteMem(4 bytes @ 0xE0002000) -- CPU_ReadMem(4 bytes @ 0xE000EDFC) -- CPU_ReadMem(4 bytes @ 0xE0001000) -- CPU_WriteMem(4 bytes @ 0xE0001000) (0044ms, 0894ms total)
T1AF0 001:046 JLINK_ReadReg(R15 (PC))  returns 0x000000E0 (0000ms, 0894ms total)
T1AF0 001:046 JLINK_ReadReg(XPSR)  returns 0xC1000000 (0000ms, 0894ms total)
T1AF0 001:047 JLINK_ReadMem (0x000000E0, 0x003C Bytes, ...) -- CPU_ReadMem(60 bytes @ 0x000000E0) - Data: 06 48 80 47 06 48 00 47 FE E7 FE E7 FE E7 FE E7 ...  returns 0x00 (0001ms, 0895ms total)
T1AF0 001:233 JLINK_ReadMem (0x40001000, 0x01BC Bytes, ...) -- CPU_ReadMem(444 bytes @ 0x40001000) - Data: FF FF FF FF FF FF FF FF FF FF FF FF FF FF FF FF ...  returns 0x00 (0006ms, 0901ms total)
T1AF0 001:239 JLINK_ReadMem (0x400011BC, 0x0004 Bytes, ...) -- CPU_ReadMem(4 bytes @ 0x400011BC) - Data: FF FF FF FF  returns 0x00 (0001ms, 0902ms total)
T1AF0 001:240 JLINK_ReadMem (0x400011C0, 0x0004 Bytes, ...) -- CPU_ReadMem(4 bytes @ 0x400011C0) - Data: FF FF FF FF  returns 0x00 (0001ms, 0903ms total)
T1AF0 001:241 JLINK_ReadMem (0x400011C4, 0x000C Bytes, ...) -- CPU_ReadMem(12 bytes @ 0x400011C4) - Data: FF FF FF FF FF FF FF FF FF FF FF FF  returns 0x00 (0001ms, 0904ms total)
T1AF0 001:242 JLINK_ReadMem (0x400011D0, 0x0004 Bytes, ...) -- CPU_ReadMem(4 bytes @ 0x400011D0) - Data: FF FF FF FF  returns 0x00 (0001ms, 0905ms total)
T1AF0 001:243 JLINK_ReadMem (0x40001800, 0x007C Bytes, ...) -- CPU_ReadMem(124 bytes @ 0x40001800) - Data: 00 00 00 00 00 00 00 00 00 00 00 00 00 00 00 00 ...  returns 0x00 (0003ms, 0908ms total)
T1AF0 001:246 JLINK_ReadMem (0x4000187C, 0x0004 Bytes, ...) -- CPU_ReadMem(4 bytes @ 0x4000187C) - Data: 00 00 00 00  returns 0x00 (0001ms, 0909ms total)
T1AF0 001:247 JLINK_ReadMem (0x400018E8, 0x0004 Bytes, ...) -- CPU_ReadMem(4 bytes @ 0x400018E8) - Data: 00 00 00 00  returns 0x00 (0001ms, 0910ms total)
T1AF0 001:248 JLINK_ReadMem (0x400018EC, 0x0004 Bytes, ...) -- CPU_ReadMem(4 bytes @ 0x400018EC) - Data: 00 00 00 00  returns 0x00 (0001ms, 0911ms total)
T1AF0 001:249 JLINK_ReadMem (0x400018F0, 0x0004 Bytes, ...) -- CPU_ReadMem(4 bytes @ 0x400018F0) - Data: 00 00 00 00  returns 0x00 (0001ms, 0912ms total)
T1AF0 001:250 JLINK_ReadMem (0x400018F4, 0x0004 Bytes, ...) -- CPU_ReadMem(4 bytes @ 0x400018F4) - Data: 00 00 00 00  returns 0x00 (0001ms, 0913ms total)
T1AF0 001:251 JLINK_ReadMem (0x400018F8, 0x0004 Bytes, ...) -- CPU_ReadMem(4 bytes @ 0x400018F8) - Data: 00 00 00 00  returns 0x00 (0001ms, 0914ms total)
T1AF0 001:252 JLINK_ReadMem (0x40001FFC, 0x0004 Bytes, ...) -- CPU_ReadMem(4 bytes @ 0x40001FFC) - Data: E1 07 81 01  returns 0x00 (0001ms, 0915ms total)
T1AF0 001:326 JLINK_ReadMem (0x40050000, 0x0028 Bytes, ...) -- CPU_ReadMem(40 bytes @ 0x40050000) - Data: 00 00 00 00 00 00 00 00 00 00 00 00 83 00 00 00 ...  returns 0x00 (0002ms, 0917ms total)
T1AF0 001:328 JLINK_ReadMem (0x40050028, 0x0004 Bytes, ...) -- CPU_ReadMem(4 bytes @ 0x40050028) - Data: 08 00 00 00  returns 0x00 (0001ms, 0918ms total)
T1AF0 001:329 JLINK_ReadMem (0x40050030, 0x0004 Bytes, ...) -- CPU_ReadMem(4 bytes @ 0x40050030) - Data: 00 00 00 00  returns 0x00 (0001ms, 0919ms total)
T1AF0 001:330 JLINK_ReadMem (0x40050FFC, 0x0004 Bytes, ...) -- CPU_ReadMem(4 bytes @ 0x40050FFC) - Data: E1 07 13 01  returns 0x00 (0001ms, 0920ms total)
T1AF0 001:401 JLINK_ReadMem (0x40000000, 0x0080 Bytes, ...) -- CPU_ReadMem(128 bytes @ 0x40000000) - Data: 05 00 00 00 3F 00 00 00 3F 00 00 00 00 00 00 00 ...  returns 0x00 (0003ms, 0923ms total)
T1AF0 001:404 JLINK_ReadMem (0x40000080, 0x0004 Bytes, ...) -- CPU_ReadMem(4 bytes @ 0x40000080) - Data: 01 00 00 00  returns 0x00 (0001ms, 0924ms total)
T1AF0 001:405 JLINK_ReadMem (0x40000FF0, 0x000C Bytes, ...) -- CPU_ReadMem(12 bytes @ 0x40000FF0) - Data: 00 00 00 00 00 00 00 00 E3 37 00 04  returns 0x00 (0001ms, 0925ms total)
T1AF0 001:406 JLINK_ReadMem (0x40000FFC, 0x0004 Bytes, ...) -- CPU_ReadMem(4 bytes @ 0x40000FFC) - Data: E1 07 80 01  returns 0x00 (0001ms, 0926ms total)
T1AF0 003:373 JLINK_ReadMem (0x1000053C, 0x0004 Bytes, ...) -- CPU_ReadMem(4 bytes @ 0x1000053C) - Data: 00 00 00 00  returns 0x00 (0002ms, 0928ms total)
T1AF0 003:389 JLINK_ReadMem (0x1000055C, 0x008A Bytes, ...) -- CPU_ReadMem(138 bytes @ 0x1000055C) - Data: 00 00 00 00 00 00 00 00 00 00 00 00 00 00 00 00 ...  returns 0x00 (0003ms, 0931ms total)
T22F8 003:405 JLINK_SetBPEx(Addr = 0x000027A4, Type = 0xFFFFFFF2)  returns 0x00000001 (0000ms, 0931ms total)
T22F8 003:405 JLINK_Go() -- CPU_ReadMem(4 bytes @ 0xE0001000) -- CPU_WriteMem(4 bytes @ 0xE0001000) -- CPU_WriteMem(4 bytes @ 0xE0002008) -- CPU_WriteMem(4 bytes @ 0xE000200C) -- CPU_WriteMem(4 bytes @ 0xE0002010) -- CPU_WriteMem(4 bytes @ 0xE0002014) -- CPU_WriteMem(4 bytes @ 0xE0001004) (0010ms, 0941ms total)
T22F8 003:515 JLINK_IsHalted()  returns TRUE (0006ms, 0947ms total)
T22F8 003:521 JLINK_Halt()  returns 0x00 (0000ms, 0941ms total)
T22F8 003:521 JLINK_IsHalted()  returns TRUE (0000ms, 0941ms total)
T22F8 003:521 JLINK_IsHalted()  returns TRUE (0000ms, 0941ms total)
T22F8 003:521 JLINK_IsHalted()  returns TRUE (0000ms, 0941ms total)
T22F8 003:521 JLINK_ReadReg(R15 (PC))  returns 0x000027A4 (0000ms, 0941ms total)
T22F8 003:521 JLINK_ReadReg(XPSR)  returns 0x61000000 (0000ms, 0941ms total)
T22F8 003:521 JLINK_ClrBPEx(BPHandle = 0x00000001)  returns 0x00 (0000ms, 0941ms total)
T22F8 003:521 JLINK_ReadMemU32(0xE000ED30, 0x0001 Items, ...) -- CPU_ReadMem(4 bytes @ 0xE000ED30) - Data: 03 00 00 00  returns 0x01 (0002ms, 0943ms total)
T22F8 003:523 JLINK_ReadMemU32(0xE0001028, 0x0001 Items, ...) -- CPU_ReadMem(4 bytes @ 0xE0001028) - Data: 00 00 00 00  returns 0x01 (0001ms, 0944ms total)
T22F8 003:524 JLINK_ReadMemU32(0xE0001038, 0x0001 Items, ...) -- CPU_ReadMem(4 bytes @ 0xE0001038) - Data: 00 00 00 00  returns 0x01 (0001ms, 0945ms total)
T22F8 003:525 JLINK_ReadReg(R0)  returns 0x000027A5 (0000ms, 0945ms total)
T22F8 003:525 JLINK_ReadReg(R1)  returns 0x10001700 (0000ms, 0945ms total)
T22F8 003:525 JLINK_ReadReg(R2)  returns 0x00000000 (0000ms, 0945ms total)
T22F8 003:525 JLINK_ReadReg(R3)  returns 0x00002795 (0000ms, 0945ms total)
T22F8 003:525 JLINK_ReadReg(R4)  returns 0x00002CE0 (0000ms, 0945ms total)
T22F8 003:525 JLINK_ReadReg(R5)  returns 0x00000001 (0000ms, 0945ms total)
T22F8 003:525 JLINK_ReadReg(R6)  returns 0x00002CE0 (0000ms, 0945ms total)
T22F8 003:525 JLINK_ReadReg(R7)  returns 0xFFFFFFFF (0000ms, 0945ms total)
T22F8 003:525 JLINK_ReadReg(R8)  returns 0xFFFFFFFF (0001ms, 0946ms total)
T22F8 003:526 JLINK_ReadReg(R9)  returns 0xFFFFFFFF (0000ms, 0946ms total)
T22F8 003:526 JLINK_ReadReg(R10)  returns 0xFFFFFFFF (0000ms, 0946ms total)
T22F8 003:526 JLINK_ReadReg(R11)  returns 0xFFFFFFFF (0000ms, 0946ms total)
T22F8 003:526 JLINK_ReadReg(R12)  returns 0xFFFFFFFF (0000ms, 0946ms total)
T22F8 003:526 JLINK_ReadReg(R13 (SP))  returns 0x10001700 (0000ms, 0946ms total)
T22F8 003:526 JLINK_ReadReg(R14)  returns 0x000001B9 (0000ms, 0946ms total)
T22F8 003:526 JLINK_ReadReg(R15 (PC))  returns 0x000027A4 (0000ms, 0946ms total)
T22F8 003:526 JLINK_ReadReg(XPSR)  returns 0x61000000 (0000ms, 0946ms total)
T22F8 003:526 JLINK_ReadReg(MSP)  returns 0x10001700 (0000ms, 0946ms total)
T22F8 003:526 JLINK_ReadReg(PSP)  returns 0xFFFFFFFC (0000ms, 0946ms total)
T22F8 003:526 JLINK_ReadReg(CFBP)  returns 0x00000000 (0000ms, 0946ms total)
T1AF0 003:528 JLINK_ReadMem (0x100015F0, 0x0004 Bytes, ...) -- CPU_ReadMem(4 bytes @ 0x100015F0) - Data: 00 00 00 00  returns 0x00 (0002ms, 0948ms total)
T1AF0 003:530 JLINK_ReadMem (0x00000000, 0x0004 Bytes, ...) -- CPU_ReadMem(64 bytes @ 0x00000000) -- Updating DA cache (64 bytes @ 0x00000000) -- Read from DA cache (4 bytes @ 0x00000000) - Data: 00 17 00 10  returns 0x00 (0002ms, 0950ms total)
T1AF0 003:532 JLINK_ReadMem (0x100015FC, 0x0020 Bytes, ...) -- CPU_ReadMem(32 bytes @ 0x100015FC) - Data: 00 00 00 00 00 00 00 00 00 00 00 00 00 00 00 00 ...  returns 0x00 (0002ms, 0952ms total)
T1AF0 003:535 JLINK_ReadMem (0x1000053C, 0x0004 Bytes, ...) -- CPU_ReadMem(4 bytes @ 0x1000053C) - Data: 00 00 00 00  returns 0x00 (0002ms, 0954ms total)
T1AF0 003:537 JLINK_ReadMem (0x1000055C, 0x008A Bytes, ...) -- CPU_ReadMem(138 bytes @ 0x1000055C) - Data: 00 00 00 00 00 00 00 00 00 00 00 00 00 00 00 00 ...  returns 0x00 (0003ms, 0957ms total)
T1AF0 003:541 JLINK_ReadMem (0x40000000, 0x0080 Bytes, ...) -- CPU_ReadMem(128 bytes @ 0x40000000) - Data: 05 00 00 00 3F 00 00 00 3F 00 00 00 00 00 00 00 ...  returns 0x00 (0003ms, 0960ms total)
T1AF0 003:544 JLINK_ReadMem (0x40000080, 0x0004 Bytes, ...) -- CPU_ReadMem(4 bytes @ 0x40000080) - Data: 01 00 00 00  returns 0x00 (0001ms, 0961ms total)
T1AF0 003:545 JLINK_ReadMem (0x40000FF0, 0x000C Bytes, ...) -- CPU_ReadMem(12 bytes @ 0x40000FF0) - Data: 00 00 00 00 00 00 00 00 E3 37 00 04  returns 0x00 (0001ms, 0962ms total)
T1AF0 003:546 JLINK_ReadMem (0x40000FFC, 0x0004 Bytes, ...) -- CPU_ReadMem(4 bytes @ 0x40000FFC) - Data: E1 07 80 01  returns 0x00 (0001ms, 0963ms total)
T1AF0 003:547 JLINK_ReadMem (0x40001000, 0x01BC Bytes, ...) -- CPU_ReadMem(444 bytes @ 0x40001000) - Data: FF FF FF FF FF FF FF FF FF FF FF FF FF FF FF FF ...  returns 0x00 (0007ms, 0970ms total)
T1AF0 003:554 JLINK_ReadMem (0x400011BC, 0x0004 Bytes, ...) -- CPU_ReadMem(4 bytes @ 0x400011BC) - Data: FF FF FF FF  returns 0x00 (0001ms, 0971ms total)
T1AF0 003:555 JLINK_ReadMem (0x400011C0, 0x0004 Bytes, ...) -- CPU_ReadMem(4 bytes @ 0x400011C0) - Data: FF FF FF FF  returns 0x00 (0001ms, 0972ms total)
T1AF0 003:556 JLINK_ReadMem (0x400011C4, 0x000C Bytes, ...) -- CPU_ReadMem(12 bytes @ 0x400011C4) - Data: FF FF FF FF FF FF FF FF FF FF FF FF  returns 0x00 (0001ms, 0973ms total)
T1AF0 003:557 JLINK_ReadMem (0x400011D0, 0x0004 Bytes, ...) -- CPU_ReadMem(4 bytes @ 0x400011D0) - Data: FF FF FF FF  returns 0x00 (0001ms, 0974ms total)
T1AF0 003:558 JLINK_ReadMem (0x40001800, 0x007C Bytes, ...) -- CPU_ReadMem(124 bytes @ 0x40001800) - Data: 00 00 00 00 00 00 00 00 00 00 00 00 00 00 00 00 ...  returns 0x00 (0002ms, 0976ms total)
T1AF0 003:560 JLINK_ReadMem (0x4000187C, 0x0004 Bytes, ...) -- CPU_ReadMem(4 bytes @ 0x4000187C) - Data: 00 00 00 00  returns 0x00 (0001ms, 0977ms total)
T1AF0 003:561 JLINK_ReadMem (0x400018E8, 0x0004 Bytes, ...) -- CPU_ReadMem(4 bytes @ 0x400018E8) - Data: 00 00 00 00  returns 0x00 (0001ms, 0978ms total)
T1AF0 003:562 JLINK_ReadMem (0x400018EC, 0x0004 Bytes, ...) -- CPU_ReadMem(4 bytes @ 0x400018EC) - Data: 00 00 00 00  returns 0x00 (0002ms, 0980ms total)
T1AF0 003:564 JLINK_ReadMem (0x400018F0, 0x0004 Bytes, ...) -- CPU_ReadMem(4 bytes @ 0x400018F0) - Data: 00 00 00 00  returns 0x00 (0001ms, 0981ms total)
T1AF0 003:565 JLINK_ReadMem (0x400018F4, 0x0004 Bytes, ...) -- CPU_ReadMem(4 bytes @ 0x400018F4) - Data: 00 00 00 00  returns 0x00 (0001ms, 0982ms total)
T1AF0 003:566 JLINK_ReadMem (0x400018F8, 0x0004 Bytes, ...) -- CPU_ReadMem(4 bytes @ 0x400018F8) - Data: 00 00 00 00  returns 0x00 (0001ms, 0983ms total)
T1AF0 003:567 JLINK_ReadMem (0x40001FFC, 0x0004 Bytes, ...) -- CPU_ReadMem(4 bytes @ 0x40001FFC) - Data: E1 07 81 01  returns 0x00 (0001ms, 0984ms total)
T1AF0 003:568 JLINK_ReadMem (0x40050000, 0x0028 Bytes, ...) -- CPU_ReadMem(40 bytes @ 0x40050000) - Data: 00 00 00 00 00 00 00 00 00 00 00 00 83 00 00 00 ...  returns 0x00 (0002ms, 0986ms total)
T1AF0 003:570 JLINK_ReadMem (0x40050028, 0x0004 Bytes, ...) -- CPU_ReadMem(4 bytes @ 0x40050028) - Data: 08 00 00 00  returns 0x00 (0001ms, 0987ms total)
T1AF0 003:571 JLINK_ReadMem (0x40050030, 0x0004 Bytes, ...) -- CPU_ReadMem(4 bytes @ 0x40050030) - Data: 00 00 00 00  returns 0x00 (0001ms, 0988ms total)
T1AF0 003:572 JLINK_ReadMem (0x40050FFC, 0x0004 Bytes, ...) -- CPU_ReadMem(4 bytes @ 0x40050FFC) - Data: E1 07 13 01  returns 0x00 (0001ms, 0989ms total)
T1AF0 003:576 JLINK_ReadMem (0x000026A4, 0x003C Bytes, ...) -- CPU_ReadMem(128 bytes @ 0x00002680) -- Updating DA cache (128 bytes @ 0x00002680) -- Read from DA cache (60 bytes @ 0x000026A4) - Data: E0 68 40 1C E0 60 A2 68 60 68 82 42 09 D1 21 68 ...  returns 0x00 (0003ms, 0992ms total)
T1AF0 003:579 JLINK_ReadMem (0x000026E0, 0x003C Bytes, ...) -- CPU_ReadMem(64 bytes @ 0x00002700) -- Updating DA cache (64 bytes @ 0x00002700) -- Read from DA cache (60 bytes @ 0x000026E0) - Data: 01 D9 05 1B 02 E0 B1 68 20 1A 0D 1A B0 68 6D 1E ...  returns 0x00 (0002ms, 0994ms total)
T1AF0 003:581 JLINK_ReadMem (0x0000271C, 0x003C Bytes, ...) -- CPU_ReadMem(64 bytes @ 0x00002740) -- Updating DA cache (64 bytes @ 0x00002740) -- Read from DA cache (60 bytes @ 0x0000271C) - Data: A0 42 00 D1 00 24 F4 60 00 2F D9 D1 00 98 05 B0 ...  returns 0x00 (0002ms, 0996ms total)
T1AF0 003:583 JLINK_ReadMem (0x00002758, 0x003C Bytes, ...) -- CPU_ReadMem(64 bytes @ 0x00002780) -- Updating DA cache (64 bytes @ 0x00002780) -- Read from DA cache (60 bytes @ 0x00002758) - Data: 01 98 76 1B 41 19 32 46 60 68 FD F7 F9 FC E6 60 ...  returns 0x00 (0002ms, 0998ms total)
T1AF0 003:585 JLINK_ReadMem (0x00002794, 0x003C Bytes, ...) -- CPU_ReadMem(64 bytes @ 0x000027C0) -- Updating DA cache (64 bytes @ 0x000027C0) -- Read from DA cache (60 bytes @ 0x00002794) - Data: 00 20 01 E0 01 C1 12 1F 00 2A FB D1 70 47 00 00 ...  returns 0x00 (0002ms, 1000ms total)
T17B0 030:204 JLINK_RTTERMINAL_Control(Cmd = JLINKARM_RTTERMINAL_CMD_START)  returns 0x00 (0000ms, 1000ms total)
T0454 030:204  -- CPU_ReadMem(24 bytes @ 0x10007000) -- CPU_ReadMem(24 bytes @ 0x10007000) -- CPU_ReadMem(24 bytes @ 0x10007000) -- CPU_ReadMem(24 bytes @ 0x10007000) -- CPU_ReadMem(24 bytes @ 0x10007000) -- CPU_ReadMem(24 bytes @ 0x10007000) -- CPU_ReadMem(24 bytes @ 0x10007000) -- CPU_ReadMem(24 bytes @ 0x10007000) -- CPU_ReadMem(24 bytes @ 0x10007000) -- CPU_ReadMem(24 bytes @ 0x10007000)JLINK_RTTERMINAL_Read(BufferIndex = 0, BufferSize = 0x000FFFFF)  returns 0 (0000ms, 1000ms total)
